time	V(n002)	V(n003)
0.000000000000000e+000	0.000000e+000	0.000000e+000
2.000000000000000e-004	0.000000e+000	0.000000e+000
2.000000000012768e-004	5.440124e-008	1.307399e-007
2.000000000038303e-004	1.632011e-007	3.922196e-007
2.000000029914404e-004	1.240901e-004	3.063235e-004
2.000000059790506e-004	2.430618e-004	6.122548e-004
2.000000089666608e-004	3.570786e-004	9.181861e-004
2.000000119542709e-004	4.661402e-004	1.224117e-003
2.000000149418811e-004	5.702467e-004	1.530049e-003
2.000000179294912e-004	6.693982e-004	1.835980e-003
2.000000209171014e-004	7.635946e-004	2.141911e-003
2.000000418354795e-004	1.328657e-003	4.283953e-003
2.000000836722358e-004	2.107364e-003	8.568037e-003
2.000001483249780e-004	2.801106e-003	1.518848e-002
2.000002211133460e-004	3.155608e-003	2.264201e-002
2.000003355147576e-004	3.338081e-003	3.435671e-002
2.000005020945305e-004	3.400145e-003	5.141448e-002
2.000097656250000e-004	3.504157e-003	1.000000e+000
2.000099883780733e-004	1.614834e-003	1.000000e+000
2.000104338842199e-004	2.426644e-004	1.000000e+000
2.000113248965130e-004	8.945428e-005	1.000000e+000
2.000128064031944e-004	1.604011e-004	1.000000e+000
2.000154271421914e-004	2.089517e-004	1.000000e+000
2.000206686201855e-004	4.294208e-004	1.000000e+000
2.000311515761735e-004	1.099980e-003	1.000000e+000
2.000521174881496e-004	3.180025e-003	1.000000e+000
2.000825958960598e-004	7.390813e-003	1.000000e+000
2.001169849530113e-004	1.341517e-002	1.000000e+000
2.001581592929245e-004	2.182789e-002	1.000000e+000
2.002052575412546e-004	3.239182e-002	1.000000e+000
2.002637138367965e-004	4.624891e-002	1.000000e+000
2.004254420831182e-004	8.609458e-002	1.000000e+000
2.005460854652950e-004	1.161882e-001	1.000000e+000
2.007242752747243e-004	1.607169e-001	1.000000e+000
2.010103983053790e-004	2.322412e-001	1.000000e+000
2.015826443666885e-004	3.752922e-001	1.000000e+000
2.027271364893074e-004	6.613160e-001	1.000000e+000
2.029166321704446e-004	7.087016e-001	1.000000e+000
2.032956235327191e-004	8.033526e-001	1.000000e+000
2.036867787609431e-004	8.998844e-001	1.000000e+000
2.039044179094675e-004	9.508523e-001	1.000000e+000
2.040404623470064e-004	9.786119e-001	1.000000e+000
2.041252402023698e-004	9.919891e-001	1.000000e+000
2.041895541057579e-004	9.987260e-001	1.000000e+000
2.042587161780628e-004	1.002577e+000	1.000000e+000
2.043286264247690e-004	1.003712e+000	1.000000e+000
2.043857645157790e-004	1.002991e+000	1.000000e+000
2.044428284238082e-004	1.001280e+000	1.000000e+000
2.045075620374771e-004	9.988832e-001	1.000000e+000
2.045725017941036e-004	9.965198e-001	1.000000e+000
2.046481454602681e-004	9.942561e-001	1.000000e+000
2.047288394138449e-004	9.926801e-001	1.000000e+000
2.048269605247070e-004	9.918794e-001	1.000000e+000
2.049388961605619e-004	9.919590e-001	1.000000e+000
2.050460736549788e-004	9.925207e-001	1.000000e+000
2.051619525536911e-004	9.931467e-001	1.000000e+000
2.052842069221427e-004	9.934846e-001	1.000000e+000
2.054427670289035e-004	9.934474e-001	1.000000e+000
2.056260699382322e-004	9.931139e-001	1.000000e+000
2.060545866116804e-004	9.925373e-001	1.000000e+000
3.246181762484481e-004	8.974001e-001	1.000000e+000
4.431817658852158e-004	8.069773e-001	1.000000e+000
5.617453555219834e-004	7.212689e-001	1.000000e+000
6.803089451587511e-004	6.402750e-001	1.000000e+000
7.988725347955188e-004	5.639954e-001	1.000000e+000
9.174361244322864e-004	4.924303e-001	1.000000e+000
1.035999714069054e-003	4.255796e-001	1.000000e+000
1.147606856926197e-003	3.667423e-001	1.000000e+000
1.259213999783340e-003	3.113779e-001	1.000000e+000
1.370821142640483e-003	2.594864e-001	1.000000e+000
1.482428285497626e-003	2.110679e-001	1.000000e+000
1.594035428354769e-003	1.661222e-001	1.000000e+000
1.705642571211912e-003	1.246494e-001	1.000000e+000
1.817249714069055e-003	8.664958e-002	1.000000e+000
1.860497481926197e-003	7.265015e-002	1.000000e+000
1.903745249783339e-003	5.908113e-002	1.000000e+000
1.946993017640482e-003	4.594250e-002	1.000000e+000
1.990240785497624e-003	3.323428e-002	1.000000e+000
2.033488553354766e-003	2.095646e-002	1.000000e+000
2.076736321211909e-003	9.109044e-003	1.000000e+000
2.119984089069051e-003	-2.307971e-003	1.000000e+000
2.149280964069050e-003	-9.824568e-003	1.000000e+000
2.219035428354763e-003	-2.691146e-002	1.000000e+000
2.288789892640476e-003	-4.306773e-002	1.000000e+000
2.358544356926189e-003	-5.829337e-002	1.000000e+000
2.428298821211902e-003	-7.258838e-002	1.000000e+000
2.498053285497614e-003	-8.595277e-002	1.000000e+000
2.567807749783327e-003	-9.838653e-002	1.000000e+000
2.637562214069040e-003	-1.098897e-001	1.000000e+000
2.753354624783323e-003	-1.269911e-001	1.000000e+000
2.869147035497606e-003	-1.422680e-001	1.000000e+000
2.984939446211890e-003	-1.557204e-001	1.000000e+000
3.100731856926173e-003	-1.673484e-001	1.000000e+000
3.216524267640456e-003	-1.771519e-001	1.000000e+000
3.332316678354740e-003	-1.851309e-001	1.000000e+000
3.448109089069023e-003	-1.912854e-001	1.000000e+000
3.527629178354735e-003	-1.948152e-001	1.000000e+000
3.607149267640448e-003	-1.977969e-001	1.000000e+000
3.686669356926161e-003	-2.002303e-001	1.000000e+000
3.766189446211873e-003	-2.021156e-001	1.000000e+000
3.845709535497586e-003	-2.034527e-001	1.000000e+000
3.925229624783299e-003	-2.042417e-001	1.000000e+000
4.004749714069011e-003	-2.044825e-001	1.000000e+000
4.057763106926153e-003	-2.044297e-001	1.000000e+000
4.110776499783294e-003	-2.042097e-001	1.000000e+000
4.163789892640436e-003	-2.038226e-001	1.000000e+000
4.216803285497578e-003	-2.032684e-001	1.000000e+000
4.269816678354720e-003	-2.025470e-001	1.000000e+000
4.322830071211861e-003	-2.016585e-001	1.000000e+000
4.375843464069003e-003	-2.006028e-001	1.000000e+000
4.481870249783286e-003	-1.979934e-001	1.000000e+000
4.587897035497570e-003	-1.950032e-001	1.000000e+000
4.693923821211853e-003	-1.916321e-001	1.000000e+000
4.799950606926137e-003	-1.878802e-001	1.000000e+000
4.905977392640420e-003	-1.837475e-001	1.000000e+000
5.012004178354704e-003	-1.792339e-001	1.000000e+000
5.118030964068987e-003	-1.743395e-001	1.000000e+000
5.257539892640412e-003	-1.675467e-001	1.000000e+000
5.397048821211838e-003	-1.606158e-001	1.000000e+000
5.536557749783264e-003	-1.535466e-001	1.000000e+000
5.676066678354690e-003	-1.463392e-001	1.000000e+000
5.815575606926115e-003	-1.389937e-001	1.000000e+000
5.955084535497541e-003	-1.315099e-001	1.000000e+000
6.094593464068966e-003	-1.238879e-001	1.000000e+000
6.257818910497534e-003	-1.151118e-001	1.000000e+000
6.421044356926102e-003	-1.065826e-001	1.000000e+000
6.584269803354670e-003	-9.830030e-002	1.000000e+000
6.747495249783238e-003	-9.026492e-002	1.000000e+000
6.910720696211806e-003	-8.247646e-002	1.000000e+000
7.073946142640375e-003	-7.493491e-002	1.000000e+000
7.237171589068942e-003	-6.764027e-002	1.000000e+000
7.424113553354652e-003	-5.980914e-002	1.000000e+000
7.611055517640362e-003	-5.246301e-002	1.000000e+000
7.797997481926073e-003	-4.560188e-002	1.000000e+000
7.984939446211783e-003	-3.922575e-002	1.000000e+000
8.171881410497494e-003	-3.333463e-002	1.000000e+000
8.358823374783204e-003	-2.792851e-002	1.000000e+000
8.545765339068914e-003	-2.300740e-002	1.000000e+000
8.577852392640343e-003	-2.220811e-002	1.000000e+000
8.609939446211769e-003	-2.142203e-002	1.000000e+000
8.642026499783198e-003	-2.064915e-002	1.000000e+000
8.674113553354625e-003	-1.988947e-002	1.000000e+000
8.706200606926054e-003	-1.914300e-002	1.000000e+000
8.738287660497481e-003	-1.840973e-002	1.000000e+000
8.770374714068909e-003	-1.768966e-002	1.000000e+000
8.780140339068909e-003	-1.747301e-002	1.000000e+000
8.908488553354620e-003	-1.475318e-002	1.000000e+000
9.036836767640333e-003	-1.221471e-002	1.000000e+000
9.165184981926044e-003	-9.857610e-003	1.000000e+000
9.293533196211755e-003	-7.681875e-003	1.000000e+000
9.421881410497468e-003	-5.687504e-003	1.000000e+000
9.550229624783179e-003	-3.874498e-003	1.000000e+000
9.678577839068890e-003	-2.242857e-003	1.000000e+000
9.721825606926032e-003	-1.722824e-003	1.000000e+000
9.765073374783174e-003	-1.219331e-003	1.000000e+000
9.808321142640316e-003	-7.323757e-004	1.000000e+000
9.851568910497457e-003	-2.619595e-004	1.000000e+000
9.894816678354599e-003	1.919180e-004	1.000000e+000
9.938064446211741e-003	6.292566e-004	1.000000e+000
9.981312214068883e-003	1.050057e-003	1.000000e+000
9.991077839068883e-003	1.143106e-003	1.000000e+000
1.000000000000000e-002	1.227661e-003	1.000000e+000
